Circuit: * D:\vlsi advanced\1_Differential_amplifier.asc

Instance "m6": Length shorter than recommended for a level 1 MOSFET.
Instance "m5": Length shorter than recommended for a level 1 MOSFET.
Instance "m4": Length shorter than recommended for a level 1 MOSFET.
Instance "m3": Length shorter than recommended for a level 1 MOSFET.
Instance "m2": Length shorter than recommended for a level 1 MOSFET.
Instance "m1": Length shorter than recommended for a level 1 MOSFET.
Direct Newton iteration failed to find .op point.  (Use ".option noopiter" to skip.)
Starting Gmin stepping
Gmin = 10
Gmin = 1.07374
Gmin = 0.115292
Gmin = 0.0123794
Gmin = 0.00132923
Gmin = 0.000142725
Gmin = 1.5325e-005
Gmin = 1.6455e-006
Gmin = 1.76685e-007
Gmin = 1.89714e-008
Gmin = 2.03704e-009
Gmin = 2.18725e-010
Gmin = 2.34854e-011
Gmin = 2.52173e-012
Gmin = 2.70769e-013
Gmin = 0
Gmin stepping succeeded in finding the operating point.

Semiconductor Device Operating Points:
                        --- MOSFET Transistors ---
Name:          m6          m5          m4          m3          m2
Model:        nmos        nmos        nmos        nmos        nmos
Id:          1.00e-05    5.00e-06    5.00e-06    1.00e-05    5.00e-06
Vgs:         5.00e-01    4.29e-01    4.29e-01    5.00e-01    4.29e-01
Vds:         1.71e-01    6.89e-01    6.89e-01    1.71e-01    6.89e-01
Vbs:         0.00e+00   -1.71e-01   -1.71e-01    0.00e+00   -1.71e-01
Vth:         4.00e-01    4.00e-01    4.00e-01    4.00e-01    4.00e-01
Vdsat:       1.00e-01    2.89e-02    2.89e-02    1.00e-01    2.89e-02
Gm:          2.00e-04    3.46e-04    3.46e-04    2.00e-04    3.46e-04
Gds:         0.00e+00    0.00e+00    0.00e+00    0.00e+00    0.00e+00
Gmb:         0.00e+00    0.00e+00    0.00e+00    0.00e+00    0.00e+00
Cbd:         0.00e+00    0.00e+00    0.00e+00    0.00e+00    0.00e+00
Cbs:         0.00e+00    0.00e+00    0.00e+00    0.00e+00    0.00e+00
Cgsov:       0.00e+00    0.00e+00    0.00e+00    0.00e+00    0.00e+00
Cgdov:       0.00e+00    0.00e+00    0.00e+00    0.00e+00    0.00e+00
Cgbov:       0.00e+00    0.00e+00    0.00e+00    0.00e+00    0.00e+00
Cgs:         0.00e+00    0.00e+00    0.00e+00    0.00e+00    0.00e+00
Cgd:         0.00e+00    0.00e+00    0.00e+00    0.00e+00    0.00e+00
Cgb:         0.00e+00    0.00e+00    0.00e+00    0.00e+00    0.00e+00

Name:          m1
Model:        nmos
Id:          5.00e-06
Vgs:         4.29e-01
Vds:         6.89e-01
Vbs:        -1.71e-01
Vth:         4.00e-01
Vdsat:       2.89e-02
Gm:          3.46e-04
Gds:         0.00e+00
Gmb:         0.00e+00
Cbd:         0.00e+00
Cbs:         0.00e+00
Cgsov:       0.00e+00
Cgdov:       0.00e+00
Cgbov:       0.00e+00
Cgs:         0.00e+00
Cgd:         0.00e+00
Cgb:         0.00e+00



vgs1: v(vg1)-v(vs1)=0.428868
vds1: v(vd1)-v(vs1)=0.688867
vgs_greaterthan_vth_1: vgs1-0.4=0.0288675
vds_greaterthan_vgs-vth_1: vds1-(vgs1-0.4)=0.66
vgs2: v(vg2)-v(vs1)=0.428868
vds2: v(vd2)-v(vs1)=0.688867
vgs_greaterthan_vth_2: vgs2-0.4=0.0288675
vds_greaterthan_vgs-vth_2: vds2-(vgs2-0.4)=0.66
vgs3: v(vg3)=0.5
vds3: v(vs1)=0.171132
vgs_greaterthan_vth_3: vgs3-0.4=0.1
vds_greaterthan_vgs-vth_3: vds3-(vgs3-0.4)=0.0711325


Date: Thu Jul 22 15:01:38 2021
Total elapsed time: 0.316 seconds.

tnom = 27
temp = 27
method = trap
totiter = 359
traniter = 0
tranpoints = 0
accept = 0
rejected = 0
matrix size = 22
fillins = 0
solver = Normal
Matrix Compiler1: 766 bytes object code size
Matrix Compiler2: 1.57 KB object code size  0.4/0.6/[0.4]

