Circuit: * D:\vlsi advanced\5_differential_amplifier_v3_with_cascode_current_mirror\5_differential_amplifier_v3_with_cascode_current_mirror.asc

Instance "m12": Length shorter than recommended for a level 1 MOSFET.
Instance "m11": Length shorter than recommended for a level 1 MOSFET.
Instance "m10": Length shorter than recommended for a level 1 MOSFET.
Instance "m9": Length shorter than recommended for a level 1 MOSFET.
Instance "m8": Length shorter than recommended for a level 1 MOSFET.
Instance "m7": Length shorter than recommended for a level 1 MOSFET.
Instance "m6": Length shorter than recommended for a level 1 MOSFET.
Instance "m5": Length shorter than recommended for a level 1 MOSFET.
Instance "m4": Length shorter than recommended for a level 1 MOSFET.
Instance "m3": Length shorter than recommended for a level 1 MOSFET.
Instance "m2": Length shorter than recommended for a level 1 MOSFET.
Instance "m1": Length shorter than recommended for a level 1 MOSFET.
Direct Newton iteration failed to find .op point.  (Use ".option noopiter" to skip.)
Starting Gmin stepping
Gmin = 10
Gmin = 1.07374
Gmin = 0.115292
Gmin = 0.0123794
Gmin = 0.00132923
Gmin = 0.000142725
Gmin = 1.5325e-005
Gmin = 1.6455e-006
Gmin = 1.76685e-007
Gmin = 1.89714e-008
Gmin = 2.03704e-009
Gmin = 2.18725e-010
Gmin = 2.34854e-011
Gmin = 2.52173e-012
Gmin = 2.70769e-013
Gmin = 0
Gmin stepping succeeded in finding the operating point.

Semiconductor Device Operating Points:
                        --- MOSFET Transistors ---
Name:          m12         m11         m10         m9          m8
Model:        nmos        nmos        nmos        nmos        nmos
Id:          1.00e-05    1.00e-05    1.00e-05    1.00e-05    1.00e-05
Vgs:         4.55e-01    4.54e-01    4.55e-01    4.55e-01    4.95e-01
Vds:         4.56e-01    6.44e-01    4.55e-01    4.55e-01    4.95e-01
Vbs:         0.00e+00   -4.56e-01    0.00e+00   -4.55e-01    0.00e+00
Vth:         4.00e-01    4.00e-01    4.00e-01    4.00e-01    4.00e-01
Vdsat:       5.53e-02    5.43e-02    5.53e-02    5.53e-02    9.54e-02
Gm:          3.62e-04    3.68e-04    3.62e-04    3.62e-04    2.10e-04
Gds:         1.83e-06    1.77e-06    1.83e-06    1.83e-06    1.82e-06
Gmb:         0.00e+00    0.00e+00    0.00e+00    0.00e+00    0.00e+00
Cbd:         0.00e+00    0.00e+00    0.00e+00    0.00e+00    0.00e+00
Cbs:         0.00e+00    0.00e+00    0.00e+00    0.00e+00    0.00e+00
Cgsov:       0.00e+00    0.00e+00    0.00e+00    0.00e+00    0.00e+00
Cgdov:       0.00e+00    0.00e+00    0.00e+00    0.00e+00    0.00e+00
Cgbov:       0.00e+00    0.00e+00    0.00e+00    0.00e+00    0.00e+00
Cgs:         0.00e+00    0.00e+00    0.00e+00    0.00e+00    0.00e+00
Cgd:         0.00e+00    0.00e+00    0.00e+00    0.00e+00    0.00e+00
Cgb:         0.00e+00    0.00e+00    0.00e+00    0.00e+00    0.00e+00

Name:          m7          m6          m5          m4          m3
Model:        nmos        nmos        nmos        nmos        nmos
Id:          1.00e-05    1.00e-05    1.44e-12    1.44e-12    1.00e-05
Vgs:         4.95e-01    4.30e-01   -5.72e-01   -5.72e-01    4.31e-01
Vds:         4.94e-01    4.30e-01    4.28e-01    4.28e-01    7.76e-02
Vbs:         0.00e+00   -4.95e-01   -5.72e-01   -5.72e-01   -4.94e-01
Vth:         4.00e-01    4.00e-01    4.00e-01    4.00e-01    4.00e-01
Vdsat:       9.54e-02    3.03e-02    0.00e+00    0.00e+00    3.14e-02
Gm:          2.10e-04    6.59e-04    0.00e+00    0.00e+00    6.37e-04
Gds:         1.82e-06    1.84e-06    0.00e+00    0.00e+00    1.97e-06
Gmb:         0.00e+00    0.00e+00    0.00e+00    0.00e+00    0.00e+00
Cbd:         0.00e+00    0.00e+00    0.00e+00    0.00e+00    0.00e+00
Cbs:         0.00e+00    0.00e+00    0.00e+00    0.00e+00    0.00e+00
Cgsov:       0.00e+00    0.00e+00    0.00e+00    0.00e+00    0.00e+00
Cgdov:       0.00e+00    0.00e+00    0.00e+00    0.00e+00    0.00e+00
Cgbov:       0.00e+00    0.00e+00    0.00e+00    0.00e+00    0.00e+00
Cgs:         0.00e+00    0.00e+00    0.00e+00    0.00e+00    0.00e+00
Cgd:         0.00e+00    0.00e+00    0.00e+00    0.00e+00    0.00e+00
Cgb:         0.00e+00    0.00e+00    0.00e+00    0.00e+00    0.00e+00

Name:          m2          m1
Model:        nmos        nmos
Id:          5.00e-06    5.00e-06
Vgs:         4.28e-01    4.28e-01
Vds:         2.88e-01    2.88e-01
Vbs:        -5.72e-01   -5.72e-01
Vth:         4.00e-01    4.00e-01
Vdsat:       2.81e-02    2.81e-02
Gm:          3.56e-04    3.56e-04
Gds:         9.45e-07    9.45e-07
Gmb:         0.00e+00    0.00e+00
Cbd:         0.00e+00    0.00e+00
Cbs:         0.00e+00    0.00e+00
Cgsov:       0.00e+00    0.00e+00
Cgdov:       0.00e+00    0.00e+00
Cgbov:       0.00e+00    0.00e+00
Cgs:         0.00e+00    0.00e+00
Cgd:         0.00e+00    0.00e+00
Cgb:         0.00e+00    0.00e+00



vgs1: v(vg1)-v(vs1)=0.428067
vds1: v(vd1)-v(vs1)=0.288131
vgs_greaterthan_vth_1: vgs1-0.4=0.0280674
vds_greaterthan_vgs-vth_1: vds1-(vgs1-0.4)=0.260064
vgs2: v(vg2)-v(vs1)=0.428067
vds2: v(vd2)-v(vs1)=0.288131
vgs_greaterthan_vth_2: vgs2-0.4=0.0280674
vds_greaterthan_vgs-vth_2: vds2-(vgs2-0.4)=0.260064
vgs3: v(vg3)-v(vd7)=0.431377
vds3: v(vs1)-v(vd7)=0.0775797
vgs_greaterthan_vth_3: vgs3-0.4=0.0313773
vds_greaterthan_vgs-vth_3: vds3-(vgs3-0.4)=0.0462024
vgs6: v(vg3)-v(vg7)=0.430344
vds6: v(vg3)-v(vg7)=0.430344
vgs_greaterthan_vth_6: vgs6-0.4=0.0303439
vds_greaterthan_vgs-vth_6: vds6-(vgs6-0.4)=0.4
vgs7: v(vg7)=0.495386
vds7: v(vd7)=0.494353
vgs_greaterthan_vth_7: vgs7-0.4=0.0953863
vds_greaterthan_vgs-vth_7: vds7-(vgs7-0.4)=0.398967
vgs8: v(vg7)=0.495386
vds8: v(vg7)=0.495386
vgs_greaterthan_vth_8: vgs8-0.4=0.0953863
vds_greaterthan_vgs-vth_8: vds8-(vgs8-0.4)=0.4
vgs11: v(vg11)-v(vd12)=0.454347
vds11: v(vd11)-v(vd12)=0.643783
vgs_greaterthan_vth_11: vgs11-0.4=0.0543471
vds_greaterthan_vgs-vth_11: vds11-(vgs11-0.4)=0.589436
vgs9: v(vg11)-v(vg12)=0.455273
vds9: v(vg11)-v(vg12)=0.455273
vgs_greaterthan_vth_9: vgs9-0.4=0.0552734
vds_greaterthan_vgs-vth_9: vds9-(vgs9-0.4)=0.4
vgs12: v(vg12)=0.455273
vds12: v(vd12)=0.4562
vgs_greaterthan_vth_12: vgs12-0.4=0.0552734
vds_greaterthan_vgs-vth_12: vds12-(vgs12-0.4)=0.400926
vgs10: v(vg12)=0.455273
vds10: v(vg12)=0.455273
vgs_greaterthan_vth_10: vgs10-0.4=0.0552734
vds_greaterthan_vgs-vth_10: vds10-(vgs10-0.4)=0.4


Date: Thu Jul 22 21:39:09 2021
Total elapsed time: 0.239 seconds.

tnom = 27
temp = 27
method = trap
totiter = 363
traniter = 0
tranpoints = 0
accept = 0
rejected = 0
matrix size = 22
fillins = 0
solver = Normal
Matrix Compiler1: 1.04 KB object code size
Matrix Compiler2: off  [0.2]/0.2/0.2

