Circuit: * D:\vlsi advanced\4_differential_amplifier_with_current_mirror.asc\4_differential_amplifier_with_current_mirror_without_lambda.asc

Instance "m6": Length shorter than recommended for a level 1 MOSFET.
Instance "m11": Length shorter than recommended for a level 1 MOSFET.
Instance "m10": Length shorter than recommended for a level 1 MOSFET.
Instance "m5": Length shorter than recommended for a level 1 MOSFET.
Instance "m4": Length shorter than recommended for a level 1 MOSFET.
Instance "m3": Length shorter than recommended for a level 1 MOSFET.
Instance "m2": Length shorter than recommended for a level 1 MOSFET.
Instance "m1": Length shorter than recommended for a level 1 MOSFET.
Direct Newton iteration for .op point succeeded.
Semiconductor Device Operating Points:
                        --- MOSFET Transistors ---
Name:          m6          m11         m10         m5          m4
Model:        nmos        nmos        nmos        nmos        nmos
Id:          1.00e-05    1.00e-05    1.00e-05    1.04e-12    1.04e-12
Vgs:         4.71e-01    4.41e-01    4.41e-01   -1.71e-01   -1.71e-01
Vds:         4.71e-01    1.10e+00    4.41e-01    4.29e-01    4.29e-01
Vbs:         0.00e+00    0.00e+00    0.00e+00   -1.71e-01   -1.71e-01
Vth:         4.00e-01    4.00e-01    4.00e-01    4.00e-01    4.00e-01
Vdsat:       7.07e-02    4.08e-02    4.08e-02    0.00e+00    0.00e+00
Gm:          2.83e-04    4.90e-04    4.90e-04    0.00e+00    0.00e+00
Gds:         0.00e+00    0.00e+00    0.00e+00    0.00e+00    0.00e+00
Gmb:         0.00e+00    0.00e+00    0.00e+00    0.00e+00    0.00e+00
Cbd:         0.00e+00    0.00e+00    0.00e+00    0.00e+00    0.00e+00
Cbs:         0.00e+00    0.00e+00    0.00e+00    0.00e+00    0.00e+00
Cgsov:       0.00e+00    0.00e+00    0.00e+00    0.00e+00    0.00e+00
Cgdov:       0.00e+00    0.00e+00    0.00e+00    0.00e+00    0.00e+00
Cgbov:       0.00e+00    0.00e+00    0.00e+00    0.00e+00    0.00e+00
Cgs:         0.00e+00    0.00e+00    0.00e+00    0.00e+00    0.00e+00
Cgd:         0.00e+00    0.00e+00    0.00e+00    0.00e+00    0.00e+00
Cgb:         0.00e+00    0.00e+00    0.00e+00    0.00e+00    0.00e+00

Name:          m3          m2          m1
Model:        nmos        nmos        nmos
Id:          1.00e-05    5.00e-06    5.00e-06
Vgs:         4.71e-01    4.29e-01    4.29e-01
Vds:         1.71e-01    6.89e-01    6.89e-01
Vbs:         0.00e+00   -1.71e-01   -1.71e-01
Vth:         4.00e-01    4.00e-01    4.00e-01
Vdsat:       7.07e-02    2.89e-02    2.89e-02
Gm:          2.83e-04    3.46e-04    3.46e-04
Gds:         0.00e+00    0.00e+00    0.00e+00
Gmb:         0.00e+00    0.00e+00    0.00e+00
Cbd:         0.00e+00    0.00e+00    0.00e+00
Cbs:         0.00e+00    0.00e+00    0.00e+00
Cgsov:       0.00e+00    0.00e+00    0.00e+00
Cgdov:       0.00e+00    0.00e+00    0.00e+00
Cgbov:       0.00e+00    0.00e+00    0.00e+00
Cgs:         0.00e+00    0.00e+00    0.00e+00
Cgd:         0.00e+00    0.00e+00    0.00e+00
Cgb:         0.00e+00    0.00e+00    0.00e+00



vgs1: v(vg1)-v(vs1)=0.428868
vds1: v(vd1)-v(vs1)=0.688867
vgs_greaterthan_vth_1: vgs1-0.4=0.0288675
vds_greaterthan_vgs-vth_1: vds1-(vgs1-0.4)=0.66
vgs2: v(vg2)-v(vs1)=0.428868
vds2: v(vd2)-v(vs1)=0.688867
vgs_greaterthan_vth_2: vgs2-0.4=0.0288675
vds_greaterthan_vgs-vth_2: vds2-(vgs2-0.4)=0.66
vgs3: v(vg3)=0.470711
vds3: v(vs1)=0.171132
vgs_greaterthan_vth_3: vgs3-0.4=0.0707107
vds_greaterthan_vgs-vth_3: vds3-(vgs3-0.4)=0.100422
vgs10: v(vd10)=0.440825
vds10: v(vd10)=0.440825
vgs_greaterthan_vth_10: vgs10-0.4=0.0408248
vds_greaterthan_vgs-vth_10: vds10-(vgs10-0.4)=0.4
vgs11: v(vd11)=1.1
vds11: v(vd11)=1.1
vgs_greaterthan_vth_11: vgs11-0.4=0.7
vds_greaterthan_vgs-vth_11: vds11-(vgs11-0.4)=0.4
vgs6: v(vg3)=0.470711
vds6: v(vg3)=0.470711
vgs_greaterthan_vth_6: vgs6-0.4=0.0707107
vds_greaterthan_vgs-vth_6: vds6-(vgs6-0.4)=0.4


Date: Thu Jul 22 19:11:08 2021
Total elapsed time: 0.156 seconds.

tnom = 27
temp = 27
method = trap
totiter = 38
traniter = 0
tranpoints = 0
accept = 0
rejected = 0
matrix size = 18
fillins = 0
solver = Normal
Matrix Compiler1: 584 bytes object code size
Matrix Compiler2:     108 opcodes
