Circuit: * D:\vlsi advanced\4_differential_amplifier_with_current_mirror.asc\4_differential_amplifier_with_current_mirror_with_lambda.asc

Instance "m8": Length shorter than recommended for a level 1 MOSFET.
Instance "m7": Length shorter than recommended for a level 1 MOSFET.
Instance "m6": Length shorter than recommended for a level 1 MOSFET.
Instance "m5": Length shorter than recommended for a level 1 MOSFET.
Instance "m4": Length shorter than recommended for a level 1 MOSFET.
Instance "m3": Length shorter than recommended for a level 1 MOSFET.
Instance "m2": Length shorter than recommended for a level 1 MOSFET.
Instance "m1": Length shorter than recommended for a level 1 MOSFET.
Direct Newton iteration failed to find .op point.  (Use ".option noopiter" to skip.)
Starting Gmin stepping
Gmin = 10
Gmin = 1.07374
Gmin = 0.115292
Gmin = 0.0123794
Gmin = 0.00132923
Gmin = 0.000142725
Gmin = 1.5325e-005
Gmin = 1.6455e-006
Gmin = 1.76685e-007
Gmin = 1.89714e-008
Gmin = 2.03704e-009
Gmin = 2.18725e-010
Gmin = 2.34854e-011
Gmin = 2.52173e-012
Gmin = 2.70769e-013
Gmin = 0
Gmin stepping succeeded in finding the operating point.

Semiconductor Device Operating Points:
                        --- MOSFET Transistors ---
Name:          m8          m7          m6          m5          m4
Model:        nmos        nmos        nmos        nmos        nmos
Id:          1.00e-05    1.12e-05    1.00e-05    1.04e-12    1.04e-12
Vgs:         4.68e-01    4.39e-01    4.39e-01   -1.74e-01   -1.74e-01
Vds:         4.68e-01    1.09e+00    4.39e-01    4.26e-01    4.26e-01
Vbs:         0.00e+00    0.00e+00    0.00e+00   -1.74e-01   -1.74e-01
Vth:         4.00e-01    4.00e-01    4.00e-01    4.00e-01    4.00e-01
Vdsat:       6.76e-02    3.91e-02    3.91e-02    0.00e+00    0.00e+00
Gm:          2.96e-04    5.72e-04    5.11e-04    0.00e+00    0.00e+00
Gds:         1.83e-06    1.84e-06    1.84e-06    0.00e+00    0.00e+00
Gmb:         0.00e+00    0.00e+00    0.00e+00    0.00e+00    0.00e+00
Cbd:         0.00e+00    0.00e+00    0.00e+00    0.00e+00    0.00e+00
Cbs:         0.00e+00    0.00e+00    0.00e+00    0.00e+00    0.00e+00
Cgsov:       0.00e+00    0.00e+00    0.00e+00    0.00e+00    0.00e+00
Cgdov:       0.00e+00    0.00e+00    0.00e+00    0.00e+00    0.00e+00
Cgbov:       0.00e+00    0.00e+00    0.00e+00    0.00e+00    0.00e+00
Cgs:         0.00e+00    0.00e+00    0.00e+00    0.00e+00    0.00e+00
Cgd:         0.00e+00    0.00e+00    0.00e+00    0.00e+00    0.00e+00
Cgb:         0.00e+00    0.00e+00    0.00e+00    0.00e+00    0.00e+00

Name:          m3          m2          m1
Model:        nmos        nmos        nmos
Id:          9.46e-06    4.73e-06    4.73e-06
Vgs:         4.68e-01    4.26e-01    4.26e-01
Vds:         1.74e-01    7.05e-01    7.05e-01
Vbs:         0.00e+00   -1.74e-01   -1.74e-01
Vth:         4.00e-01    4.00e-01    4.00e-01
Vdsat:       6.76e-02    2.63e-02    2.63e-02
Gm:          2.80e-04    3.60e-04    3.60e-04
Gds:         1.83e-06    8.29e-07    8.29e-07
Gmb:         0.00e+00    0.00e+00    0.00e+00
Cbd:         0.00e+00    0.00e+00    0.00e+00
Cbs:         0.00e+00    0.00e+00    0.00e+00
Cgsov:       0.00e+00    0.00e+00    0.00e+00
Cgdov:       0.00e+00    0.00e+00    0.00e+00
Cgbov:       0.00e+00    0.00e+00    0.00e+00
Cgs:         0.00e+00    0.00e+00    0.00e+00
Cgd:         0.00e+00    0.00e+00    0.00e+00
Cgb:         0.00e+00    0.00e+00    0.00e+00



vgs1: v(vg1)-v(vs1)=0.42629
vds1: v(vd1)-v(vs1)=0.704566
vgs_greaterthan_vth_1: vgs1-0.4=0.0262897
vds_greaterthan_vgs-vth_1: vds1-(vgs1-0.4)=0.678276
vgs2: v(vg2)-v(vs1)=0.42629
vds2: v(vd2)-v(vs1)=0.704566
vgs_greaterthan_vth_2: vgs2-0.4=0.0262897
vds_greaterthan_vgs-vth_2: vds2-(vgs2-0.4)=0.678276
vgs3: v(vg3)=0.467619
vds3: v(vs1)=0.17371
vgs_greaterthan_vth_3: vgs3-0.4=0.0676193
vds_greaterthan_vgs-vth_3: vds3-(vgs3-0.4)=0.106091
vgs10: v(vd10)=0.439142
vds10: v(vd10)=0.439142
vgs_greaterthan_vth_10: vgs10-0.4=0.0391421
vds_greaterthan_vgs-vth_10: vds10-(vgs10-0.4)=0.4
vgs11: v(vd11)=1.08807
vds11: v(vd11)=1.08807
vgs_greaterthan_vth_11: vgs11-0.4=0.688069
vds_greaterthan_vgs-vth_11: vds11-(vgs11-0.4)=0.4
vgs6: v(vg3)=0.467619
vds6: v(vg3)=0.467619
vgs_greaterthan_vth_6: vgs6-0.4=0.0676193
vds_greaterthan_vgs-vth_6: vds6-(vgs6-0.4)=0.4


Date: Thu Jul 22 19:17:35 2021
Total elapsed time: 0.172 seconds.

tnom = 27
temp = 27
method = trap
totiter = 361
traniter = 0
tranpoints = 0
accept = 0
rejected = 0
matrix size = 18
fillins = 0
solver = Normal
Matrix Compiler1: 584 bytes object code size
Matrix Compiler2: off  [0.1]/0.2/0.1

